PiSugar 3 full register map (0x57):
reg 0x00 = 0x03 (  3) 00000011
reg 0x01 = 0x0f ( 15) 00001111
reg 0x02 = 0xfc (252) 11111100
reg 0x03 = 0x40 ( 64) 01000000
reg 0x04 = 0x42 ( 66) 01000010
reg 0x05 = 0x00 (  0) 00000000
reg 0x06 = 0x00 (  0) 00000000
reg 0x07 = 0x01 (  1) 00000001
reg 0x08 = 0x01 (  1) 00000001
reg 0x09 = 0x00 (  0) 00000000
reg 0x0a = 0x05 (  5) 00000101
reg 0x0b = 0x00 (  0) 00000000
reg 0x0c = 0x00 (  0) 00000000
reg 0x0d = 0x00 (  0) 00000000
reg 0x0e = 0x00 (  0) 00000000
reg 0x0f = 0x00 (  0) 00000000
reg 0x10 = 0x0b ( 11) 00001011
reg 0x11 = 0x09 (  9) 00001001
reg 0x12 = 0x08 (  8) 00001000
reg 0x13 = 0x06 (  6) 00000110
reg 0x14 = 0x02 (  2) 00000010
reg 0x15 = 0xff (255) 11111111
reg 0x16 = 0x19 ( 25) 00011001
reg 0x17 = 0x0a ( 10) 00001010
reg 0x18 = 0x69 (105) 01101001
reg 0x19 = 0x00 (  0) 00000000
reg 0x1a = 0xff (255) 11111111
reg 0x1b = 0xff (255) 11111111
reg 0x1c = 0x44 ( 68) 01000100
reg 0x1d = 0x00 (  0) 00000000
reg 0x1e = 0xff (255) 11111111
reg 0x1f = 0xff (255) 11111111
reg 0x20 = 0x40 ( 64) 01000000
reg 0x21 = 0x00 (  0) 00000000
reg 0x22 = 0x10 ( 16) 00010000
reg 0x23 = 0xb5 (181) 10110101
reg 0x24 = 0x00 (  0) 00000000
reg 0x25 = 0x00 (  0) 00000000
reg 0x26 = 0x00 (  0) 00000000
reg 0x27 = 0x00 (  0) 00000000
reg 0x28 = 0x3c ( 60) 00111100
reg 0x29 = 0x00 (  0) 00000000
reg 0x2a = 0x64 (100) 01100100
reg 0x2b = 0x00 (  0) 00000000
reg 0x2c = 0x00 (  0) 00000000
reg 0x2d = 0x00 (  0) 00000000
reg 0x2e = 0x00 (  0) 00000000
reg 0x2f = 0x00 (  0) 00000000
reg 0x30 = 0x00 (  0) 00000000
reg 0x31 = 0x22 ( 34) 00100010
reg 0x32 = 0x07 (  7) 00000111
reg 0x33 = 0x22 ( 34) 00100010
reg 0x34 = 0x03 (  3) 00000011
reg 0x35 = 0x06 (  6) 00000110
reg 0x36 = 0x11 ( 17) 00010001
reg 0x37 = 0x56 ( 86) 01010110
reg 0x38 = 0x00 (  0) 00000000
reg 0x39 = 0x00 (  0) 00000000
reg 0x3a = 0x00 (  0) 00000000
reg 0x3b = 0x00 (  0) 00000000
reg 0x3c = 0x00 (  0) 00000000
reg 0x3d = 0x00 (  0) 00000000
reg 0x3e = 0x00 (  0) 00000000
reg 0x3f = 0x00 (  0) 00000000
